
T0440 000:306 SEGGER J-Link V4.96d Log File (0000ms, 0263ms total)
T0440 000:306 DLL Compiled: Jan 29 2015 11:45:37 (0000ms, 0263ms total)
T0440 000:306 Logging started @ 2015-04-22 23:23 (0000ms, 0263ms total)
T0440 000:306 JLINK_SetWarnOutHandler(...) (0000ms, 0263ms total)
T0440 000:306 JLINK_OpenEx(...)
Firmware: J-Link OpenSDA 2 compiled Nov 28 2014 10:34:59
Hardware: V1.00
S/N: 621000000  returns O.K. (0262ms, 0525ms total)
T0440 000:568 JLINK_SetErrorOutHandler(...) (0000ms, 0525ms total)
T0440 000:568 JLINK_ExecCommand("ProjectFile = "D:\Repozytoria\Ethernet_workspace_2\Ethernet\JLinkSettings.ini"", ...)  returns 0x00 (0002ms, 0527ms total)
T0440 000:580 JLINK_ExecCommand("Device = MK64FN1M0xxx12", ...)Device "MK64FN1M0XXX12" selected.  returns 0x00 (0007ms, 0534ms total)
T0440 000:587 JLINK_ExecCommand("DisableConnectionTimeout", ...)  returns 0x01 (0000ms, 0534ms total)
T0440 000:587 JLINK_GetHardwareVersion()  returns 0x2710 (0000ms, 0534ms total)
T0440 000:587 JLINK_GetDLLVersion()  returns 49604 (0000ms, 0534ms total)
T0440 000:587 JLINK_GetFirmwareString(...) (0000ms, 0534ms total)
T0440 000:595 JLINK_GetDLLVersion()  returns 49604 (0000ms, 0534ms total)
T0440 000:595 JLINK_GetCompileDateTime() (0000ms, 0534ms total)
T0440 000:598 JLINK_GetFirmwareString(...) (0000ms, 0534ms total)
T0440 000:600 JLINK_GetHardwareVersion()  returns 0x2710 (0000ms, 0534ms total)
T0440 000:608 JLINK_TIF_Select(JLINKARM_TIF_SWD)  returns 0x00 (0002ms, 0536ms total)
T0440 000:610 JLINK_SetSpeed(20000) (0000ms, 0536ms total)
T0440 000:610 JLINK_GetId() >0x108 TIF>Found SWD-DP with ID 0x2BA01477 >0x0D TIF> >0x28 TIF> >0x0D TIF> >0x28 TIF> >0x0D TIF> >0x21 TIF> >0x0D TIF> >0x28 TIF> >0x0D TIF> >0x21 TIF> >0x0D TIF> >0x21 TIF> >0x0D TIF> >0x21 TIF> >0x0D TIF> >0x21 TIF> >0x0D TIF> >0x21 TIF> >0x0D TIF> >0x21 TIF> >0x0D TIF> >0x21 TIF> >0x0D TIF> >0x21 TIF> >0x0D TIF> >0x21 TIF> >0x0D TIF> >0x21 TIF> >0x108 TIF>Found SWD-DP with ID 0x2BA01477 >0x0D TIF> >0x21 TIF> >0x0D TIF> >0x28 TIF> >0x0D TIF> >0x28 TIF> >0x0D TIF> >0x21 TIF>
 >0x0D TIF> >0x28 TIF> >0x0D TIF> >0x21 TIF> >0x0D TIF> >0x21 TIF> >0x0D TIF> >0x21 TIF> >0x0D TIF> >0x21 TIF> >0x0D TIF> >0x28 TIF> >0x0D TIF> >0x28 TIF> >0x0D TIF> >0x21 TIF> >0x0D TIF> >0x28 TIF> >0x0D TIF> >0x28 TIF> >0x0D TIF> >0x28 TIF> >0x0D TIF> >0x21 TIF> >0x0D TIF> >0x21 TIF> >0x0D TIF> >0x28 TIF> >0x0D TIF> >0x21 TIF> >0x0D TIF> >0x21 TIF>Found Cortex-M4 r0p1, Little endian. -- CPU_WriteMem(4 bytes @ 0xE0002000) -- CPU_ReadMem(4 bytes @ 0xE000EDF0) -- CPU_ReadMem(4 bytes @ 0xE0002000)
FPUnit: 6 code (BP) slots and 2 literal slots -- CPU_ReadMem(4 bytes @ 0xE000EDFC) -- CPU_ReadMem(4 bytes @ 0xE0001000) -- CPU_WriteMem(4 bytes @ 0xE0001000) -- CPU_ReadMem(4 bytes @ 0xE000ED88) -- CPU_WriteMem(4 bytes @ 0xE000ED88) -- CPU_ReadMem(4 bytes @ 0xE000ED88) -- CPU_WriteMem(4 bytes @ 0xE000ED88) -- CPU_ReadMem(4 bytes @ 0xE00FF010)TPIU fitted. -- CPU_ReadMem(4 bytes @ 0xE00FF014)ETM fitted. -- CPU_ReadMem(4 bytes @ 0xE00FF018) -- CPU_ReadMem(4 bytes @ 0xE0042FE0)
 -- CPU_ReadMem(4 bytes @ 0xE0042FE4)ETB present. -- CPU_ReadMem(4 bytes @ 0xE00FF01C) -- CPU_ReadMem(4 bytes @ 0xE0043FE0) -- CPU_ReadMem(4 bytes @ 0xE0043FE4)CSTF present. -- CPU_ReadMem(4 bytes @ 0xE00FF020) -- CPU_ReadMem(2 bytes @ 0x40052000) >0x0D TIF> >0x21 TIF>  returns 0x2BA01477 (0090ms, 0626ms total)
T0440 000:700 JLINK_GetDLLVersion()  returns 49604 (0000ms, 0626ms total)
T0440 000:700 JLINK_CORE_GetFound()  returns 0xE0000FF (0000ms, 0626ms total)
T0440 000:700 JLINK_GetDebugInfo(0x100) -- Value=0xE00FF003  returns 0x00 (0000ms, 0626ms total)
T0440 000:703 JLINK_ReadMem (0xE00FF000, 0x0020 Bytes, ...) -- CPU_ReadMem(32 bytes @ 0xE00FF000) - Data: 03 F0 F0 FF 03 20 F0 FF 03 30 F0 FF 03 10 F0 FF ...  returns 0x00 (0001ms, 0627ms total)
T0440 000:704 JLINK_ReadMem (0xE000EFF0, 0x0010 Bytes, ...) -- CPU_ReadMem(16 bytes @ 0xE000EFF0) - Data: 0D 00 00 00 E0 00 00 00 05 00 00 00 B1 00 00 00  returns 0x00 (0001ms, 0628ms total)
T0440 000:705 JLINK_ReadMem (0xE000EFD0, 0x0020 Bytes, ...) -- CPU_ReadMem(32 bytes @ 0xE000EFD0) - Data: 04 00 00 00 00 00 00 00 00 00 00 00 00 00 00 00 ...  returns 0x00 (0001ms, 0629ms total)
T0440 000:706 JLINK_ReadMem (0xE0001FF0, 0x0010 Bytes, ...) -- CPU_ReadMem(16 bytes @ 0xE0001FF0) - Data: 0D 00 00 00 E0 00 00 00 05 00 00 00 B1 00 00 00  returns 0x00 (0001ms, 0630ms total)
T0440 000:707 JLINK_ReadMem (0xE0001FD0, 0x0020 Bytes, ...) -- CPU_ReadMem(32 bytes @ 0xE0001FD0) - Data: 04 00 00 00 00 00 00 00 00 00 00 00 00 00 00 00 ...  returns 0x00 (0002ms, 0632ms total)
T0440 000:709 JLINK_ReadMem (0xE0002FF0, 0x0010 Bytes, ...) -- CPU_ReadMem(16 bytes @ 0xE0002FF0) - Data: 0D 00 00 00 E0 00 00 00 05 00 00 00 B1 00 00 00  returns 0x00 (0001ms, 0633ms total)
T0440 000:710 JLINK_ReadMem (0xE0002FD0, 0x0020 Bytes, ...) -- CPU_ReadMem(32 bytes @ 0xE0002FD0) - Data: 04 00 00 00 00 00 00 00 00 00 00 00 00 00 00 00 ...  returns 0x00 (0001ms, 0634ms total)
T0440 000:711 JLINK_ReadMem (0xE0000FF0, 0x0010 Bytes, ...) -- CPU_ReadMem(16 bytes @ 0xE0000FF0) - Data: 0D 00 00 00 E0 00 00 00 05 00 00 00 B1 00 00 00  returns 0x00 (0001ms, 0635ms total)
T0440 000:712 JLINK_ReadMem (0xE0000FD0, 0x0020 Bytes, ...) -- CPU_ReadMem(32 bytes @ 0xE0000FD0) - Data: 04 00 00 00 00 00 00 00 00 00 00 00 00 00 00 00 ...  returns 0x00 (0001ms, 0636ms total)
T0440 000:714 JLINK_ReadMem (0xE0040FF0, 0x0010 Bytes, ...) -- CPU_ReadMem(16 bytes @ 0xE0040FF0) - Data: 0D 00 00 00 90 00 00 00 05 00 00 00 B1 00 00 00  returns 0x00 (0001ms, 0637ms total)
T0440 000:715 JLINK_ReadMem (0xE0040FD0, 0x0020 Bytes, ...) -- CPU_ReadMem(32 bytes @ 0xE0040FD0) - Data: 04 00 00 00 00 00 00 00 00 00 00 00 00 00 00 00 ...  returns 0x00 (0001ms, 0638ms total)
T0440 000:716 JLINK_ReadMem (0xE0041FF0, 0x0010 Bytes, ...) -- CPU_ReadMem(16 bytes @ 0xE0041FF0) - Data: 0D 00 00 00 90 00 00 00 05 00 00 00 B1 00 00 00  returns 0x00 (0001ms, 0639ms total)
T0440 000:717 JLINK_ReadMem (0xE0041FD0, 0x0020 Bytes, ...) -- CPU_ReadMem(32 bytes @ 0xE0041FD0) - Data: 04 00 00 00 00 00 00 00 00 00 00 00 00 00 00 00 ...  returns 0x00 (0001ms, 0640ms total)
T0440 000:718 JLINK_ReadMem (0xE0042FF0, 0x0010 Bytes, ...) -- CPU_ReadMem(16 bytes @ 0xE0042FF0) - Data: 0D 00 00 00 90 00 00 00 05 00 00 00 B1 00 00 00  returns 0x00 (0001ms, 0641ms total)
T0440 000:719 JLINK_ReadMem (0xE0042FD0, 0x0020 Bytes, ...) -- CPU_ReadMem(32 bytes @ 0xE0042FD0) - Data: 04 00 00 00 00 00 00 00 00 00 00 00 00 00 00 00 ...  returns 0x00 (0002ms, 0643ms total)
T0440 000:721 JLINK_ReadMem (0xE0043FF0, 0x0010 Bytes, ...) -- CPU_ReadMem(16 bytes @ 0xE0043FF0) - Data: 0D 00 00 00 90 00 00 00 05 00 00 00 B1 00 00 00  returns 0x00 (0000ms, 0643ms total)
T0440 000:722 JLINK_ReadMem (0xE0043FD0, 0x0020 Bytes, ...) -- CPU_ReadMem(32 bytes @ 0xE0043FD0) - Data: 04 00 00 00 00 00 00 00 00 00 00 00 00 00 00 00 ...  returns 0x00 (0001ms, 0645ms total)
T0440 000:723 JLINK_ReadMem (0xE00FF020, 0x0020 Bytes, ...) -- CPU_ReadMem(32 bytes @ 0xE00FF020) - Data: 00 00 00 00 00 00 00 00 00 00 00 00 00 00 00 00 ...  returns 0x00 (0001ms, 0646ms total)
T0440 000:724 JLINK_ReadMemU32(0xE000EF40, 0x0001 Items, ...) -- CPU_ReadMem(4 bytes @ 0xE000EF40) - Data: 21 00 11 10  returns 0x01 (0001ms, 0647ms total)
T0440 000:725 JLINK_ReadMemU32(0xE000EF44, 0x0001 Items, ...) -- CPU_ReadMem(4 bytes @ 0xE000EF44) - Data: 11 00 00 11  returns 0x01 (0001ms, 0648ms total)
T0440 000:726 JLINK_ReadMemU32(0xE000ED00, 0x0001 Items, ...) -- CPU_ReadMem(4 bytes @ 0xE000ED00) - Data: 41 C2 0F 41  returns 0x01 (0001ms, 0649ms total)
T0440 000:727 JLINK_SetResetType(JLINKARM_RESET_TYPE_NORMAL)  returns JLINKARM_RESET_TYPE_SOFT (0000ms, 0649ms total)
T0440 000:727 JLINK_Reset() -- CPU_WriteMem(4 bytes @ 0xE000EDF0) -- CPU_WriteMem(4 bytes @ 0xE000EDFC) >0x35 TIF> -- CPU_WriteMem(4 bytes @ 0xE000ED0C) -- CPU_ReadMem(4 bytes @ 0xE000EDF0) -- CPU_ReadMem(4 bytes @ 0xE000EDF0) -- CPU_WriteMem(4 bytes @ 0xE000EDF0) -- CPU_WriteMem(4 bytes @ 0xE000EDFC) -- CPU is running -- CPU_ReadMem(4 bytes @ 0xE000EDF0) -- CPU_ReadMem(8 bytes @ 0x20000000) -- CPU_WriteMem(8 bytes @ 0x20000000) -- CPU_WriteMem(8 bytes @ 0x20000000) -- CPU_WriteMem(4 bytes @ 0xE0002000)
 -- CPU_ReadMem(4 bytes @ 0xE000EDFC) -- CPU_ReadMem(4 bytes @ 0xE0001000) (0033ms, 0682ms total)
T0440 000:760 JLINK_Halt()  returns 0x00 (0000ms, 0682ms total)
T0440 000:760 JLINK_IsHalted()  returns TRUE (0000ms, 0682ms total)
T0440 000:760 JLINK_ReadMemU32(0xE000EDF0, 0x0001 Items, ...) -- CPU_ReadMem(4 bytes @ 0xE000EDF0) - Data: 03 00 03 00  returns 0x01 (0001ms, 0683ms total)
T0440 000:761 JLINK_WriteU32(0xE000EDF0, 0xA05F0003) -- CPU_WriteMem(4 bytes @ 0xE000EDF0)  returns 0x00 (0001ms, 0684ms total)
T0440 000:762 JLINK_WriteU32(0xE000EDFC, 0x01000000) -- CPU_WriteMem(4 bytes @ 0xE000EDFC)  returns 0x00 (0001ms, 0685ms total)
T0440 000:773 JLINK_GetHWStatus(...)  returns 0x00 (0000ms, 0685ms total)
T0440 000:779 JLINK_GetNumBPUnits(Type = 0xFFFFFF00)  returns 0x06 (0000ms, 0685ms total)
T0440 000:779 JLINK_GetNumBPUnits(Type = 0xF0)  returns 0x2000 (0001ms, 0686ms total)
T0440 000:780 JLINK_GetNumWPUnits()  returns 0x04 (0000ms, 0686ms total)
T0440 000:786 JLINK_GetSpeed()  returns 0x595 (0000ms, 0686ms total)
T0440 000:791 JLINK_ReadMemU32(0xE000E004, 0x0001 Items, ...) -- CPU_ReadMem(4 bytes @ 0xE000E004) - Data: 02 00 00 00  returns 0x01 (0001ms, 0687ms total)
T0440 000:792 JLINK_ReadMemU32(0xE000E004, 0x0001 Items, ...) -- CPU_ReadMem(4 bytes @ 0xE000E004) - Data: 02 00 00 00  returns 0x01 (0001ms, 0688ms total)
T0440 000:793 JLINK_WriteMem(0xE0001000, 0x001C Bytes, ...) - Data: 01 00 00 00 00 00 00 00 00 00 00 00 00 00 00 00 ... -- CPU_WriteMem(28 bytes @ 0xE0001000)  returns 0x1C (0001ms, 0689ms total)
T0440 000:794 JLINK_ReadMem (0xE0001000, 0x001C Bytes, ...) -- CPU_ReadMem(28 bytes @ 0xE0001000) - Data: 01 00 00 40 00 00 00 00 00 00 00 00 00 00 00 00 ...  returns 0x00 (0002ms, 0691ms total)
T0440 000:796 JLINK_Halt()  returns 0x00 (0000ms, 0691ms total)
T0440 000:796 JLINK_IsHalted()  returns TRUE (0000ms, 0691ms total)
T0440 000:799 JLINK_WriteMem(0x20000000, 0x0440 Bytes, ...) - Data: 00 BE 0A E0 0D 78 2D 06 68 40 08 24 40 00 00 D3 ... -- CPU_WriteMem(1088 bytes @ 0x20000000)  returns 0x440 (0014ms, 0705ms total)
T0440 000:813 JLINK_WriteReg(R0, 0x00000000)  returns 0x00 (0000ms, 0705ms total)
T0440 000:813 JLINK_WriteReg(R1, 0x00B71B00)  returns 0x00 (0000ms, 0705ms total)
T0440 000:813 JLINK_WriteReg(R2, 0x00000001)  returns 0x00 (0000ms, 0705ms total)
T0440 000:813 JLINK_WriteReg(R3, 0x00000000)  returns 0x00 (0000ms, 0705ms total)
T0440 000:813 JLINK_WriteReg(R4, 0x00000000)  returns 0x00 (0000ms, 0705ms total)
T0440 000:813 JLINK_WriteReg(R5, 0x00000000)  returns 0x00 (0000ms, 0705ms total)
T0440 000:813 JLINK_WriteReg(R6, 0x00000000)  returns 0x00 (0000ms, 0705ms total)
T0440 000:813 JLINK_WriteReg(R7, 0x00000000)  returns 0x00 (0000ms, 0705ms total)
T0440 000:813 JLINK_WriteReg(R8, 0x00000000)  returns 0x00 (0000ms, 0705ms total)
T0440 000:813 JLINK_WriteReg(R9, 0x20000438)  returns 0x00 (0000ms, 0705ms total)
T0440 000:813 JLINK_WriteReg(R10, 0x00000000)  returns 0x00 (0000ms, 0705ms total)
T0440 000:813 JLINK_WriteReg(R11, 0x00000000)  returns 0x00 (0000ms, 0705ms total)
T0440 000:813 JLINK_WriteReg(R12, 0x00000000)  returns 0x00 (0000ms, 0705ms total)
T0440 000:813 JLINK_WriteReg(R13 (SP), 0x20001000)  returns 0x00 (0000ms, 0705ms total)
T0440 000:813 JLINK_WriteReg(R14, 0x20000001)  returns 0x00 (0000ms, 0705ms total)
T0440 000:813 JLINK_WriteReg(R15 (PC), 0x20000020)  returns 0x00 (0000ms, 0705ms total)
T0440 000:813 JLINK_WriteReg(XPSR, 0x01000000)  returns 0x00 (0000ms, 0705ms total)
T0440 000:813 JLINK_WriteReg(MSP, 0x20001000)  returns 0x00 (0000ms, 0705ms total)
T0440 000:813 JLINK_WriteReg(PSP, 0x20001000)  returns 0x00 (0000ms, 0705ms total)
T0440 000:813 JLINK_WriteReg(CFBP, 0x00000000)  returns 0x00 (0000ms, 0705ms total)
T0440 000:813 JLINK_SetBPEx(Addr = 0x20000000, Type = 0xFFFFFFF2) -- CPU_ReadMem(2 bytes @ 0x20000000)  returns 0x00000001 (0001ms, 0706ms total)
T0440 000:814 JLINK_Go() -- CPU_WriteMem(2 bytes @ 0x20000000) -- CPU_WriteMem(4 bytes @ 0xE0002008) -- CPU_WriteMem(4 bytes @ 0xE000200C) -- CPU_WriteMem(4 bytes @ 0xE0002010) -- CPU_WriteMem(4 bytes @ 0xE0002014) -- CPU_WriteMem(4 bytes @ 0xE0002018) -- CPU_WriteMem(4 bytes @ 0xE000201C) -- CPU_WriteMem(4 bytes @ 0xE0001004) (0007ms, 0713ms total)
T0440 000:821 JLINK_IsHalted() -- CPU_ReadMem(2 bytes @ 0x20000000)  returns TRUE (0006ms, 0719ms total)
T0440 000:827 JLINK_ReadReg(R15 (PC))  returns 0x20000000 (0000ms, 0713ms total)
T0440 000:827 JLINK_ClrBPEx(BPHandle = 0x00000001)  returns 0x00 (0000ms, 0713ms total)
T0440 000:827 JLINK_ReadReg(R0)  returns 0x00000000 (0000ms, 0713ms total)
T0440 000:827 JLINK_WriteReg(R0, 0x00000000)  returns 0x00 (0000ms, 0713ms total)
T0440 000:827 JLINK_WriteReg(R1, 0x00001000)  returns 0x00 (0000ms, 0713ms total)
T0440 000:827 JLINK_WriteReg(R2, 0x000000FF)  returns 0x00 (0000ms, 0713ms total)
T0440 000:827 JLINK_WriteReg(R3, 0x00000000)  returns 0x00 (0000ms, 0713ms total)
T0440 000:828 JLINK_WriteReg(R4, 0x00000000)  returns 0x00 (0000ms, 0713ms total)
T0440 000:828 JLINK_WriteReg(R5, 0x00000000)  returns 0x00 (0000ms, 0713ms total)
T0440 000:828 JLINK_WriteReg(R6, 0x00000000)  returns 0x00 (0000ms, 0713ms total)
T0440 000:828 JLINK_WriteReg(R7, 0x00000000)  returns 0x00 (0000ms, 0713ms total)
T0440 000:828 JLINK_WriteReg(R8, 0x00000000)  returns 0x00 (0000ms, 0713ms total)
T0440 000:828 JLINK_WriteReg(R9, 0x20000438)  returns 0x00 (0000ms, 0713ms total)
T0440 000:828 JLINK_WriteReg(R10, 0x00000000)  returns 0x00 (0000ms, 0713ms total)
T0440 000:828 JLINK_WriteReg(R11, 0x00000000)  returns 0x00 (0000ms, 0713ms total)
T0440 000:828 JLINK_WriteReg(R12, 0x00000000)  returns 0x00 (0000ms, 0713ms total)
T0440 000:828 JLINK_WriteReg(R13 (SP), 0x20001000)  returns 0x00 (0000ms, 0713ms total)
T0440 000:828 JLINK_WriteReg(R14, 0x20000001)  returns 0x00 (0000ms, 0713ms total)
T0440 000:828 JLINK_WriteReg(R15 (PC), 0x20000074)  returns 0x00 (0000ms, 0713ms total)
T0440 000:828 JLINK_WriteReg(XPSR, 0x01000000)  returns 0x00 (0000ms, 0713ms total)
T0440 000:828 JLINK_WriteReg(MSP, 0x20001000)  returns 0x00 (0000ms, 0713ms total)
T0440 000:828 JLINK_WriteReg(PSP, 0x20001000)  returns 0x00 (0000ms, 0713ms total)
T0440 000:828 JLINK_WriteReg(CFBP, 0x00000000)  returns 0x00 (0000ms, 0713ms total)
T0440 000:828 JLINK_SetBPEx(Addr = 0x20000000, Type = 0xFFFFFFF2)  returns 0x00000002 (0000ms, 0713ms total)
T0440 000:828 JLINK_Go() (0002ms, 0715ms total)
T0440 000:830 JLINK_IsHalted() -- CPU_ReadMem(2 bytes @ 0x20000000)  returns TRUE (0006ms, 0721ms total)
T0440 000:836 JLINK_ReadReg(R15 (PC))  returns 0x20000000 (0000ms, 0715ms total)
T0440 000:836 JLINK_ClrBPEx(BPHandle = 0x00000002)  returns 0x00 (0000ms, 0715ms total)
T0440 000:836 JLINK_ReadReg(R0)  returns 0x00000001 (0000ms, 0715ms total)
T0440 000:836 JLINK_WriteReg(R0, 0x00000000)  returns 0x00 (0000ms, 0715ms total)
T0440 000:836 JLINK_WriteReg(R1, 0x00001000)  returns 0x00 (0000ms, 0715ms total)
T0440 000:836 JLINK_WriteReg(R2, 0x000000FF)  returns 0x00 (0000ms, 0715ms total)
T0440 000:836 JLINK_WriteReg(R3, 0x00000000)  returns 0x00 (0000ms, 0715ms total)
T0440 000:836 JLINK_WriteReg(R4, 0x00000000)  returns 0x00 (0000ms, 0715ms total)
T0440 000:836 JLINK_WriteReg(R5, 0x00000000)  returns 0x00 (0000ms, 0715ms total)
T0440 000:836 JLINK_WriteReg(R6, 0x00000000)  returns 0x00 (0000ms, 0715ms total)
T0440 000:836 JLINK_WriteReg(R7, 0x00000000)  returns 0x00 (0000ms, 0715ms total)
T0440 000:836 JLINK_WriteReg(R8, 0x00000000)  returns 0x00 (0000ms, 0715ms total)
T0440 000:836 JLINK_WriteReg(R9, 0x20000438)  returns 0x00 (0000ms, 0715ms total)
T0440 000:836 JLINK_WriteReg(R10, 0x00000000)  returns 0x00 (0000ms, 0715ms total)
T0440 000:836 JLINK_WriteReg(R11, 0x00000000)  returns 0x00 (0000ms, 0715ms total)
T0440 000:836 JLINK_WriteReg(R12, 0x00000000)  returns 0x00 (0000ms, 0715ms total)
T0440 000:836 JLINK_WriteReg(R13 (SP), 0x20001000)  returns 0x00 (0000ms, 0715ms total)
T0440 000:836 JLINK_WriteReg(R14, 0x20000001)  returns 0x00 (0000ms, 0715ms total)
T0440 000:836 JLINK_WriteReg(R15 (PC), 0x200000CA)  returns 0x00 (0000ms, 0715ms total)
T0440 000:836 JLINK_WriteReg(XPSR, 0x01000000)  returns 0x00 (0000ms, 0715ms total)
T0440 000:836 JLINK_WriteReg(MSP, 0x20001000)  returns 0x00 (0000ms, 0715ms total)
T0440 000:836 JLINK_WriteReg(PSP, 0x20001000)  returns 0x00 (0000ms, 0715ms total)
T0440 000:836 JLINK_WriteReg(CFBP, 0x00000000)  returns 0x00 (0000ms, 0715ms total)
T0440 000:836 JLINK_SetBPEx(Addr = 0x20000000, Type = 0xFFFFFFF2)  returns 0x00000003 (0000ms, 0715ms total)
T0440 000:836 JLINK_Go() (0003ms, 0718ms total)
T0440 000:839 JLINK_IsHalted()  returns FALSE (0001ms, 0719ms total)
T0440 000:880 JLINK_IsHalted() -- CPU_ReadMem(2 bytes @ 0x20000000)  returns TRUE (0005ms, 0723ms total)
T0440 000:885 JLINK_ReadReg(R15 (PC))  returns 0x20000000 (0000ms, 0718ms total)
T0440 000:885 JLINK_ClrBPEx(BPHandle = 0x00000003)  returns 0x00 (0000ms, 0718ms total)
T0440 000:885 JLINK_ReadReg(R0)  returns 0x00000000 (0000ms, 0718ms total)
T0440 000:886 JLINK_WriteReg(R0, 0x00001000)  returns 0x00 (0000ms, 0718ms total)
T0440 000:886 JLINK_WriteReg(R1, 0x00001000)  returns 0x00 (0000ms, 0718ms total)
T0440 000:886 JLINK_WriteReg(R2, 0x000000FF)  returns 0x00 (0000ms, 0718ms total)
T0440 000:886 JLINK_WriteReg(R3, 0x00000000)  returns 0x00 (0000ms, 0718ms total)
T0440 000:886 JLINK_WriteReg(R4, 0x00000000)  returns 0x00 (0000ms, 0718ms total)
T0440 000:886 JLINK_WriteReg(R5, 0x00000000)  returns 0x00 (0000ms, 0718ms total)
T0440 000:886 JLINK_WriteReg(R6, 0x00000000)  returns 0x00 (0000ms, 0718ms total)
T0440 000:886 JLINK_WriteReg(R7, 0x00000000)  returns 0x00 (0000ms, 0718ms total)
T0440 000:886 JLINK_WriteReg(R8, 0x00000000)  returns 0x00 (0000ms, 0718ms total)
T0440 000:886 JLINK_WriteReg(R9, 0x20000438)  returns 0x00 (0000ms, 0718ms total)
T0440 000:886 JLINK_WriteReg(R10, 0x00000000)  returns 0x00 (0000ms, 0718ms total)
T0440 000:886 JLINK_WriteReg(R11, 0x00000000)  returns 0x00 (0000ms, 0718ms total)
T0440 000:886 JLINK_WriteReg(R12, 0x00000000)  returns 0x00 (0000ms, 0718ms total)
T0440 000:886 JLINK_WriteReg(R13 (SP), 0x20001000)  returns 0x00 (0000ms, 0718ms total)
T0440 000:886 JLINK_WriteReg(R14, 0x20000001)  returns 0x00 (0000ms, 0718ms total)
T0440 000:886 JLINK_WriteReg(R15 (PC), 0x20000074)  returns 0x00 (0000ms, 0718ms total)
T0440 000:886 JLINK_WriteReg(XPSR, 0x01000000)  returns 0x00 (0000ms, 0718ms total)
T0440 000:886 JLINK_WriteReg(MSP, 0x20001000)  returns 0x00 (0000ms, 0718ms total)
T0440 000:886 JLINK_WriteReg(PSP, 0x20001000)  returns 0x00 (0000ms, 0718ms total)
T0440 000:886 JLINK_WriteReg(CFBP, 0x00000000)  returns 0x00 (0000ms, 0718ms total)
T0440 000:886 JLINK_SetBPEx(Addr = 0x20000000, Type = 0xFFFFFFF2)  returns 0x00000004 (0000ms, 0718ms total)
T0440 000:886 JLINK_Go() (0003ms, 0721ms total)
T0440 000:889 JLINK_IsHalted() -- CPU_ReadMem(2 bytes @ 0x20000000)  returns TRUE (0005ms, 0726ms total)
T0440 000:894 JLINK_ReadReg(R15 (PC))  returns 0x20000000 (0000ms, 0721ms total)
T0440 000:894 JLINK_ClrBPEx(BPHandle = 0x00000004)  returns 0x00 (0000ms, 0721ms total)
T0440 000:894 JLINK_ReadReg(R0)  returns 0x00000001 (0000ms, 0721ms total)
T0440 000:894 JLINK_WriteReg(R0, 0x00001000)  returns 0x00 (0000ms, 0721ms total)
T0440 000:894 JLINK_WriteReg(R1, 0x00001000)  returns 0x00 (0000ms, 0721ms total)
T0440 000:894 JLINK_WriteReg(R2, 0x000000FF)  returns 0x00 (0000ms, 0721ms total)
T0440 000:894 JLINK_WriteReg(R3, 0x00000000)  returns 0x00 (0000ms, 0721ms total)
T0440 000:894 JLINK_WriteReg(R4, 0x00000000)  returns 0x00 (0000ms, 0721ms total)
T0440 000:894 JLINK_WriteReg(R5, 0x00000000)  returns 0x00 (0000ms, 0721ms total)
T0440 000:894 JLINK_WriteReg(R6, 0x00000000)  returns 0x00 (0000ms, 0721ms total)
T0440 000:894 JLINK_WriteReg(R7, 0x00000000)  returns 0x00 (0000ms, 0721ms total)
T0440 000:894 JLINK_WriteReg(R8, 0x00000000)  returns 0x00 (0000ms, 0721ms total)
T0440 000:894 JLINK_WriteReg(R9, 0x20000438)  returns 0x00 (0000ms, 0721ms total)
T0440 000:894 JLINK_WriteReg(R10, 0x00000000)  returns 0x00 (0000ms, 0721ms total)
T0440 000:894 JLINK_WriteReg(R11, 0x00000000)  returns 0x00 (0000ms, 0721ms total)
T0440 000:894 JLINK_WriteReg(R12, 0x00000000)  returns 0x00 (0000ms, 0721ms total)
T0440 000:894 JLINK_WriteReg(R13 (SP), 0x20001000)  returns 0x00 (0000ms, 0721ms total)
T0440 000:894 JLINK_WriteReg(R14, 0x20000001)  returns 0x00 (0000ms, 0721ms total)
T0440 000:894 JLINK_WriteReg(R15 (PC), 0x200000CA)  returns 0x00 (0000ms, 0721ms total)
T0440 000:894 JLINK_WriteReg(XPSR, 0x01000000)  returns 0x00 (0000ms, 0721ms total)
T0440 000:894 JLINK_WriteReg(MSP, 0x20001000)  returns 0x00 (0000ms, 0721ms total)
T0440 000:894 JLINK_WriteReg(PSP, 0x20001000)  returns 0x00 (0000ms, 0721ms total)
T0440 000:894 JLINK_WriteReg(CFBP, 0x00000000)  returns 0x00 (0000ms, 0721ms total)
T0440 000:894 JLINK_SetBPEx(Addr = 0x20000000, Type = 0xFFFFFFF2)  returns 0x00000005 (0000ms, 0721ms total)
T0440 000:894 JLINK_Go() (0003ms, 0724ms total)
T0440 000:897 JLINK_IsHalted()  returns FALSE (0000ms, 0724ms total)
T0440 000:898 JLINK_IsHalted()  returns FALSE (0000ms, 0724ms total)
T0440 000:899 JLINK_IsHalted()  returns FALSE (0000ms, 0724ms total)
T0440 000:900 JLINK_IsHalted()  returns FALSE (0000ms, 0724ms total)
T0440 000:901 JLINK_IsHalted()  returns FALSE (0000ms, 0724ms total)
T0440 000:902 JLINK_IsHalted()  returns FALSE (0000ms, 0724ms total)
T0440 000:903 JLINK_IsHalted() -- CPU_ReadMem(2 bytes @ 0x20000000)  returns TRUE (0004ms, 0728ms total)
T0440 000:907 JLINK_ReadReg(R15 (PC))  returns 0x20000000 (0001ms, 0725ms total)
T0440 000:908 JLINK_ClrBPEx(BPHandle = 0x00000005)  returns 0x00 (0000ms, 0725ms total)
T0440 000:908 JLINK_ReadReg(R0)  returns 0x00000000 (0000ms, 0725ms total)
T0440 000:908 JLINK_WriteReg(R0, 0x00002000)  returns 0x00 (0000ms, 0725ms total)
T0440 000:908 JLINK_WriteReg(R1, 0x00001000)  returns 0x00 (0000ms, 0725ms total)
T0440 000:908 JLINK_WriteReg(R2, 0x000000FF)  returns 0x00 (0000ms, 0725ms total)
T0440 000:908 JLINK_WriteReg(R3, 0x00000000)  returns 0x00 (0000ms, 0725ms total)
T0440 000:908 JLINK_WriteReg(R4, 0x00000000)  returns 0x00 (0000ms, 0725ms total)
T0440 000:908 JLINK_WriteReg(R5, 0x00000000)  returns 0x00 (0000ms, 0725ms total)
T0440 000:908 JLINK_WriteReg(R6, 0x00000000)  returns 0x00 (0000ms, 0725ms total)
T0440 000:908 JLINK_WriteReg(R7, 0x00000000)  returns 0x00 (0000ms, 0725ms total)
T0440 000:908 JLINK_WriteReg(R8, 0x00000000)  returns 0x00 (0000ms, 0725ms total)
T0440 000:908 JLINK_WriteReg(R9, 0x20000438)  returns 0x00 (0000ms, 0725ms total)
T0440 000:908 JLINK_WriteReg(R10, 0x00000000)  returns 0x00 (0000ms, 0725ms total)
T0440 000:908 JLINK_WriteReg(R11, 0x00000000)  returns 0x00 (0000ms, 0725ms total)
T0440 000:908 JLINK_WriteReg(R12, 0x00000000)  returns 0x00 (0000ms, 0725ms total)
T0440 000:908 JLINK_WriteReg(R13 (SP), 0x20001000)  returns 0x00 (0000ms, 0725ms total)
T0440 000:908 JLINK_WriteReg(R14, 0x20000001)  returns 0x00 (0000ms, 0725ms total)
T0440 000:908 JLINK_WriteReg(R15 (PC), 0x20000074)  returns 0x00 (0000ms, 0725ms total)
T0440 000:908 JLINK_WriteReg(XPSR, 0x01000000)  returns 0x00 (0000ms, 0725ms total)
T0440 000:908 JLINK_WriteReg(MSP, 0x20001000)  returns 0x00 (0000ms, 0725ms total)
T0440 000:908 JLINK_WriteReg(PSP, 0x20001000)  returns 0x00 (0000ms, 0725ms total)
T0440 000:909 JLINK_WriteReg(CFBP, 0x00000000)  returns 0x00 (0000ms, 0726ms total)
T0440 000:909 JLINK_SetBPEx(Addr = 0x20000000, Type = 0xFFFFFFF2)  returns 0x00000006 (0000ms, 0726ms total)
T0440 000:909 JLINK_Go() (0002ms, 0728ms total)
T0440 000:911 JLINK_IsHalted() -- CPU_ReadMem(2 bytes @ 0x20000000)  returns TRUE (0005ms, 0733ms total)
T0440 000:916 JLINK_ReadReg(R15 (PC))  returns 0x20000000 (0000ms, 0728ms total)
T0440 000:916 JLINK_ClrBPEx(BPHandle = 0x00000006)  returns 0x00 (0000ms, 0728ms total)
T0440 000:916 JLINK_ReadReg(R0)  returns 0x00000001 (0000ms, 0728ms total)
T0440 000:916 JLINK_WriteReg(R0, 0x00002000)  returns 0x00 (0000ms, 0728ms total)
T0440 000:916 JLINK_WriteReg(R1, 0x00001000)  returns 0x00 (0000ms, 0728ms total)
T0440 000:916 JLINK_WriteReg(R2, 0x000000FF)  returns 0x00 (0000ms, 0728ms total)
T0440 000:916 JLINK_WriteReg(R3, 0x00000000)  returns 0x00 (0000ms, 0728ms total)
T0440 000:916 JLINK_WriteReg(R4, 0x00000000)  returns 0x00 (0000ms, 0728ms total)
T0440 000:916 JLINK_WriteReg(R5, 0x00000000)  returns 0x00 (0000ms, 0728ms total)
T0440 000:916 JLINK_WriteReg(R6, 0x00000000)  returns 0x00 (0000ms, 0728ms total)
T0440 000:916 JLINK_WriteReg(R7, 0x00000000)  returns 0x00 (0000ms, 0728ms total)
T0440 000:916 JLINK_WriteReg(R8, 0x00000000)  returns 0x00 (0000ms, 0728ms total)
T0440 000:916 JLINK_WriteReg(R9, 0x20000438)  returns 0x00 (0000ms, 0728ms total)
T0440 000:916 JLINK_WriteReg(R10, 0x00000000)  returns 0x00 (0000ms, 0728ms total)
T0440 000:916 JLINK_WriteReg(R11, 0x00000000)  returns 0x00 (0000ms, 0728ms total)
T0440 000:916 JLINK_WriteReg(R12, 0x00000000)  returns 0x00 (0000ms, 0728ms total)
T0440 000:916 JLINK_WriteReg(R13 (SP), 0x20001000)  returns 0x00 (0000ms, 0728ms total)
T0440 000:916 JLINK_WriteReg(R14, 0x20000001)  returns 0x00 (0000ms, 0728ms total)
T0440 000:916 JLINK_WriteReg(R15 (PC), 0x200000CA)  returns 0x00 (0000ms, 0728ms total)
T0440 000:916 JLINK_WriteReg(XPSR, 0x01000000)  returns 0x00 (0000ms, 0728ms total)
T0440 000:916 JLINK_WriteReg(MSP, 0x20001000)  returns 0x00 (0000ms, 0728ms total)
T0440 000:916 JLINK_WriteReg(PSP, 0x20001000)  returns 0x00 (0000ms, 0728ms total)
T0440 000:916 JLINK_WriteReg(CFBP, 0x00000000)  returns 0x00 (0000ms, 0728ms total)
T0440 000:916 JLINK_SetBPEx(Addr = 0x20000000, Type = 0xFFFFFFF2)  returns 0x00000007 (0000ms, 0728ms total)
T0440 000:916 JLINK_Go() (0003ms, 0731ms total)
T0440 000:919 JLINK_IsHalted()  returns FALSE (0001ms, 0732ms total)
T0440 000:921 JLINK_IsHalted()  returns FALSE (0000ms, 0731ms total)
T0440 000:922 JLINK_IsHalted()  returns FALSE (0000ms, 0731ms total)
T0440 000:923 JLINK_IsHalted()  returns FALSE (0000ms, 0731ms total)
T0440 000:924 JLINK_IsHalted()  returns FALSE (0000ms, 0731ms total)
T0440 000:925 JLINK_IsHalted() -- CPU_ReadMem(2 bytes @ 0x20000000)  returns TRUE (0004ms, 0735ms total)
T0440 000:929 JLINK_ReadReg(R15 (PC))  returns 0x20000000 (0000ms, 0731ms total)
T0440 000:930 JLINK_ClrBPEx(BPHandle = 0x00000007)  returns 0x00 (0000ms, 0732ms total)
T0440 000:930 JLINK_ReadReg(R0)  returns 0x00000000 (0000ms, 0732ms total)
T0440 000:930 JLINK_WriteReg(R0, 0x00003000)  returns 0x00 (0000ms, 0732ms total)
T0440 000:930 JLINK_WriteReg(R1, 0x00001000)  returns 0x00 (0000ms, 0732ms total)
T0440 000:930 JLINK_WriteReg(R2, 0x000000FF)  returns 0x00 (0000ms, 0732ms total)
T0440 000:930 JLINK_WriteReg(R3, 0x00000000)  returns 0x00 (0000ms, 0732ms total)
T0440 000:930 JLINK_WriteReg(R4, 0x00000000)  returns 0x00 (0000ms, 0732ms total)
T0440 000:930 JLINK_WriteReg(R5, 0x00000000)  returns 0x00 (0000ms, 0732ms total)
T0440 000:930 JLINK_WriteReg(R6, 0x00000000)  returns 0x00 (0000ms, 0732ms total)
T0440 000:930 JLINK_WriteReg(R7, 0x00000000)  returns 0x00 (0000ms, 0732ms total)
T0440 000:930 JLINK_WriteReg(R8, 0x00000000)  returns 0x00 (0000ms, 0732ms total)
T0440 000:930 JLINK_WriteReg(R9, 0x20000438)  returns 0x00 (0000ms, 0732ms total)
T0440 000:930 JLINK_WriteReg(R10, 0x00000000)  returns 0x00 (0000ms, 0732ms total)
T0440 000:930 JLINK_WriteReg(R11, 0x00000000)  returns 0x00 (0000ms, 0732ms total)
T0440 000:930 JLINK_WriteReg(R12, 0x00000000)  returns 0x00 (0000ms, 0732ms total)
T0440 000:930 JLINK_WriteReg(R13 (SP), 0x20001000)  returns 0x00 (0000ms, 0732ms total)
T0440 000:930 JLINK_WriteReg(R14, 0x20000001)  returns 0x00 (0001ms, 0733ms total)
T0440 000:931 JLINK_WriteReg(R15 (PC), 0x20000074)  returns 0x00 (0000ms, 0733ms total)
T0440 000:931 JLINK_WriteReg(XPSR, 0x01000000)  returns 0x00 (0000ms, 0733ms total)
T0440 000:931 JLINK_WriteReg(MSP, 0x20001000)  returns 0x00 (0000ms, 0733ms total)
T0440 000:931 JLINK_WriteReg(PSP, 0x20001000)  returns 0x00 (0000ms, 0733ms total)
T0440 000:931 JLINK_WriteReg(CFBP, 0x00000000)  returns 0x00 (0000ms, 0733ms total)
T0440 000:931 JLINK_SetBPEx(Addr = 0x20000000, Type = 0xFFFFFFF2)  returns 0x00000008 (0000ms, 0733ms total)
T0440 000:931 JLINK_Go() (0002ms, 0735ms total)
T0440 000:933 JLINK_IsHalted() -- CPU_ReadMem(2 bytes @ 0x20000000)  returns TRUE (0005ms, 0740ms total)
T0440 000:938 JLINK_ReadReg(R15 (PC))  returns 0x20000000 (0000ms, 0735ms total)
T0440 000:938 JLINK_ClrBPEx(BPHandle = 0x00000008)  returns 0x00 (0000ms, 0735ms total)
T0440 000:938 JLINK_ReadReg(R0)  returns 0x00000001 (0000ms, 0735ms total)
T0440 000:938 JLINK_WriteReg(R0, 0x00003000)  returns 0x00 (0000ms, 0735ms total)
T0440 000:938 JLINK_WriteReg(R1, 0x00001000)  returns 0x00 (0000ms, 0735ms total)
T0440 000:938 JLINK_WriteReg(R2, 0x000000FF)  returns 0x00 (0000ms, 0735ms total)
T0440 000:938 JLINK_WriteReg(R3, 0x00000000)  returns 0x00 (0000ms, 0735ms total)
T0440 000:938 JLINK_WriteReg(R4, 0x00000000)  returns 0x00 (0000ms, 0735ms total)
T0440 000:938 JLINK_WriteReg(R5, 0x00000000)  returns 0x00 (0000ms, 0735ms total)
T0440 000:938 JLINK_WriteReg(R6, 0x00000000)  returns 0x00 (0000ms, 0735ms total)
T0440 000:938 JLINK_WriteReg(R7, 0x00000000)  returns 0x00 (0000ms, 0735ms total)
T0440 000:938 JLINK_WriteReg(R8, 0x00000000)  returns 0x00 (0000ms, 0735ms total)
T0440 000:938 JLINK_WriteReg(R9, 0x20000438)  returns 0x00 (0001ms, 0736ms total)
T0440 000:939 JLINK_WriteReg(R10, 0x00000000)  returns 0x00 (0000ms, 0736ms total)
T0440 000:939 JLINK_WriteReg(R11, 0x00000000)  returns 0x00 (0000ms, 0736ms total)
T0440 000:939 JLINK_WriteReg(R12, 0x00000000)  returns 0x00 (0000ms, 0736ms total)
T0440 000:939 JLINK_WriteReg(R13 (SP), 0x20001000)  returns 0x00 (0000ms, 0736ms total)
T0440 000:939 JLINK_WriteReg(R14, 0x20000001)  returns 0x00 (0000ms, 0736ms total)
T0440 000:939 JLINK_WriteReg(R15 (PC), 0x200000CA)  returns 0x00 (0000ms, 0736ms total)
T0440 000:939 JLINK_WriteReg(XPSR, 0x01000000)  returns 0x00 (0000ms, 0736ms total)
T0440 000:939 JLINK_WriteReg(MSP, 0x20001000)  returns 0x00 (0000ms, 0736ms total)
T0440 000:939 JLINK_WriteReg(PSP, 0x20001000)  returns 0x00 (0000ms, 0736ms total)
T0440 000:939 JLINK_WriteReg(CFBP, 0x00000000)  returns 0x00 (0000ms, 0736ms total)
T0440 000:939 JLINK_SetBPEx(Addr = 0x20000000, Type = 0xFFFFFFF2)  returns 0x00000009 (0000ms, 0736ms total)
T0440 000:939 JLINK_Go() (0002ms, 0738ms total)
T0440 000:941 JLINK_IsHalted()  returns FALSE (0001ms, 0739ms total)
T0440 000:943 JLINK_IsHalted()  returns FALSE (0000ms, 0738ms total)
T0440 000:944 JLINK_IsHalted()  returns FALSE (0001ms, 0739ms total)
T0440 000:946 JLINK_IsHalted()  returns FALSE (0000ms, 0738ms total)
T0440 000:947 JLINK_IsHalted()  returns FALSE (0000ms, 0738ms total)
T0440 000:950 JLINK_IsHalted() -- CPU_ReadMem(2 bytes @ 0x20000000)  returns TRUE (0005ms, 0743ms total)
T0440 000:955 JLINK_ReadReg(R15 (PC))  returns 0x20000000 (0000ms, 0738ms total)
T0440 000:955 JLINK_ClrBPEx(BPHandle = 0x00000009)  returns 0x00 (0000ms, 0738ms total)
T0440 000:955 JLINK_ReadReg(R0)  returns 0x00000000 (0000ms, 0738ms total)
T0440 000:955 JLINK_WriteReg(R0, 0x00000001)  returns 0x00 (0000ms, 0738ms total)
T0440 000:955 JLINK_WriteReg(R1, 0x00001000)  returns 0x00 (0000ms, 0738ms total)
T0440 000:955 JLINK_WriteReg(R2, 0x000000FF)  returns 0x00 (0000ms, 0738ms total)
T0440 000:955 JLINK_WriteReg(R3, 0x00000000)  returns 0x00 (0000ms, 0738ms total)
T0440 000:955 JLINK_WriteReg(R4, 0x00000000)  returns 0x00 (0000ms, 0738ms total)
T0440 000:955 JLINK_WriteReg(R5, 0x00000000)  returns 0x00 (0000ms, 0738ms total)
T0440 000:955 JLINK_WriteReg(R6, 0x00000000)  returns 0x00 (0000ms, 0738ms total)
T0440 000:955 JLINK_WriteReg(R7, 0x00000000)  returns 0x00 (0000ms, 0738ms total)
T0440 000:955 JLINK_WriteReg(R8, 0x00000000)  returns 0x00 (0000ms, 0738ms total)
T0440 000:955 JLINK_WriteReg(R9, 0x20000438)  returns 0x00 (0000ms, 0738ms total)
T0440 000:955 JLINK_WriteReg(R10, 0x00000000)  returns 0x00 (0000ms, 0738ms total)
T0440 000:955 JLINK_WriteReg(R11, 0x00000000)  returns 0x00 (0000ms, 0738ms total)
T0440 000:955 JLINK_WriteReg(R12, 0x00000000)  returns 0x00 (0001ms, 0739ms total)
T0440 000:956 JLINK_WriteReg(R13 (SP), 0x20001000)  returns 0x00 (0000ms, 0739ms total)
T0440 000:956 JLINK_WriteReg(R14, 0x20000001)  returns 0x00 (0000ms, 0739ms total)
T0440 000:956 JLINK_WriteReg(R15 (PC), 0x20000070)  returns 0x00 (0000ms, 0739ms total)
T0440 000:956 JLINK_WriteReg(XPSR, 0x01000000)  returns 0x00 (0000ms, 0739ms total)
T0440 000:956 JLINK_WriteReg(MSP, 0x20001000)  returns 0x00 (0000ms, 0739ms total)
T0440 000:956 JLINK_WriteReg(PSP, 0x20001000)  returns 0x00 (0000ms, 0739ms total)
T0440 000:956 JLINK_WriteReg(CFBP, 0x00000000)  returns 0x00 (0000ms, 0739ms total)
T0440 000:956 JLINK_SetBPEx(Addr = 0x20000000, Type = 0xFFFFFFF2)  returns 0x0000000A (0000ms, 0739ms total)
T0440 000:956 JLINK_Go() (0002ms, 0741ms total)
T0440 000:958 JLINK_IsHalted() -- CPU_ReadMem(2 bytes @ 0x20000000)  returns TRUE (0006ms, 0747ms total)
T0440 000:964 JLINK_ReadReg(R15 (PC))  returns 0x20000000 (0000ms, 0741ms total)
T0440 000:964 JLINK_ClrBPEx(BPHandle = 0x0000000A)  returns 0x00 (0000ms, 0741ms total)
T0440 000:964 JLINK_ReadReg(R0)  returns 0x00000000 (0000ms, 0741ms total)
T0440 001:020 JLINK_WriteMem(0x20000000, 0x0440 Bytes, ...) - Data: 00 BE 0A E0 0D 78 2D 06 68 40 08 24 40 00 00 D3 ... -- CPU_WriteMem(1088 bytes @ 0x20000000)  returns 0x440 (0013ms, 0754ms total)
T0440 001:033 JLINK_WriteReg(R0, 0x00000000)  returns 0x00 (0000ms, 0754ms total)
T0440 001:033 JLINK_WriteReg(R1, 0x00B71B00)  returns 0x00 (0000ms, 0754ms total)
T0440 001:033 JLINK_WriteReg(R2, 0x00000002)  returns 0x00 (0000ms, 0754ms total)
T0440 001:033 JLINK_WriteReg(R3, 0x00000000)  returns 0x00 (0000ms, 0754ms total)
T0440 001:033 JLINK_WriteReg(R4, 0x00000000)  returns 0x00 (0000ms, 0754ms total)
T0440 001:033 JLINK_WriteReg(R5, 0x00000000)  returns 0x00 (0000ms, 0754ms total)
T0440 001:033 JLINK_WriteReg(R6, 0x00000000)  returns 0x00 (0000ms, 0754ms total)
T0440 001:033 JLINK_WriteReg(R7, 0x00000000)  returns 0x00 (0000ms, 0754ms total)
T0440 001:033 JLINK_WriteReg(R8, 0x00000000)  returns 0x00 (0000ms, 0754ms total)
T0440 001:033 JLINK_WriteReg(R9, 0x20000438)  returns 0x00 (0000ms, 0754ms total)
T0440 001:033 JLINK_WriteReg(R10, 0x00000000)  returns 0x00 (0000ms, 0754ms total)
T0440 001:033 JLINK_WriteReg(R11, 0x00000000)  returns 0x00 (0000ms, 0754ms total)
T0440 001:033 JLINK_WriteReg(R12, 0x00000000)  returns 0x00 (0000ms, 0754ms total)
T0440 001:033 JLINK_WriteReg(R13 (SP), 0x20001000)  returns 0x00 (0000ms, 0754ms total)
T0440 001:034 JLINK_WriteReg(R14, 0x20000001)  returns 0x00 (0000ms, 0754ms total)
T0440 001:034 JLINK_WriteReg(R15 (PC), 0x20000020)  returns 0x00 (0000ms, 0754ms total)
T0440 001:034 JLINK_WriteReg(XPSR, 0x01000000)  returns 0x00 (0000ms, 0754ms total)
T0440 001:034 JLINK_WriteReg(MSP, 0x20001000)  returns 0x00 (0000ms, 0754ms total)
T0440 001:034 JLINK_WriteReg(PSP, 0x20001000)  returns 0x00 (0000ms, 0754ms total)
T0440 001:034 JLINK_WriteReg(CFBP, 0x00000000)  returns 0x00 (0000ms, 0754ms total)
T0440 001:034 JLINK_SetBPEx(Addr = 0x20000000, Type = 0xFFFFFFF2) -- CPU_ReadMem(2 bytes @ 0x20000000)  returns 0x0000000B (0001ms, 0755ms total)
T0440 001:035 JLINK_Go() -- CPU_WriteMem(2 bytes @ 0x20000000) (0002ms, 0757ms total)
T0440 001:037 JLINK_IsHalted() -- CPU_ReadMem(2 bytes @ 0x20000000)  returns TRUE (0006ms, 0763ms total)
T0440 001:043 JLINK_ReadReg(R15 (PC))  returns 0x20000000 (0000ms, 0757ms total)
T0440 001:043 JLINK_ClrBPEx(BPHandle = 0x0000000B)  returns 0x00 (0000ms, 0757ms total)
T0440 001:043 JLINK_ReadReg(R0)  returns 0x00000000 (0000ms, 0757ms total)
T0440 001:043 JLINK_WriteMem(0x20000468, 0x0200 Bytes, ...) - Data: 18 7E 00 20 7F 05 00 00 8B 05 00 00 8D 05 00 00 ... -- CPU_WriteMem(512 bytes @ 0x20000468)  returns 0x200 (0008ms, 0765ms total)
T0440 001:051 JLINK_WriteReg(R0, 0x00000000)  returns 0x00 (0000ms, 0765ms total)
T0440 001:051 JLINK_WriteReg(R1, 0x00000200)  returns 0x00 (0000ms, 0765ms total)
T0440 001:051 JLINK_WriteReg(R2, 0x20000468)  returns 0x00 (0000ms, 0765ms total)
T0440 001:051 JLINK_WriteReg(R3, 0x00000000)  returns 0x00 (0000ms, 0765ms total)
T0440 001:051 JLINK_WriteReg(R4, 0x00000000)  returns 0x00 (0000ms, 0765ms total)
T0440 001:051 JLINK_WriteReg(R5, 0x00000000)  returns 0x00 (0000ms, 0765ms total)
T0440 001:051 JLINK_WriteReg(R6, 0x00000000)  returns 0x00 (0000ms, 0765ms total)
T0440 001:051 JLINK_WriteReg(R7, 0x00000000)  returns 0x00 (0000ms, 0765ms total)
T0440 001:051 JLINK_WriteReg(R8, 0x00000000)  returns 0x00 (0000ms, 0765ms total)
T0440 001:051 JLINK_WriteReg(R9, 0x20000438)  returns 0x00 (0000ms, 0765ms total)
T0440 001:051 JLINK_WriteReg(R10, 0x00000000)  returns 0x00 (0000ms, 0765ms total)
T0440 001:051 JLINK_WriteReg(R11, 0x00000000)  returns 0x00 (0000ms, 0765ms total)
T0440 001:051 JLINK_WriteReg(R12, 0x00000000)  returns 0x00 (0000ms, 0765ms total)
T0440 001:051 JLINK_WriteReg(R13 (SP), 0x20001000)  returns 0x00 (0000ms, 0765ms total)
T0440 001:051 JLINK_WriteReg(R14, 0x20000001)  returns 0x00 (0000ms, 0765ms total)
T0440 001:051 JLINK_WriteReg(R15 (PC), 0x200000DE)  returns 0x00 (0000ms, 0765ms total)
T0440 001:051 JLINK_WriteReg(XPSR, 0x01000000)  returns 0x00 (0000ms, 0765ms total)
T0440 001:051 JLINK_WriteReg(MSP, 0x20001000)  returns 0x00 (0000ms, 0765ms total)
T0440 001:051 JLINK_WriteReg(PSP, 0x20001000)  returns 0x00 (0000ms, 0765ms total)
T0440 001:051 JLINK_WriteReg(CFBP, 0x00000000)  returns 0x00 (0000ms, 0765ms total)
T0440 001:051 JLINK_SetBPEx(Addr = 0x20000000, Type = 0xFFFFFFF2)  returns 0x0000000C (0000ms, 0765ms total)
T0440 001:051 JLINK_Go() (0002ms, 0767ms total)
T0440 001:053 JLINK_IsHalted()  returns FALSE (0001ms, 0768ms total)
T0440 001:071 JLINK_IsHalted() -- CPU_ReadMem(2 bytes @ 0x20000000)  returns TRUE (0005ms, 0772ms total)
T0440 001:076 JLINK_ReadReg(R15 (PC))  returns 0x20000000 (0000ms, 0767ms total)
T0440 001:076 JLINK_ClrBPEx(BPHandle = 0x0000000C)  returns 0x00 (0000ms, 0767ms total)
T0440 001:076 JLINK_ReadReg(R0)  returns 0x00000000 (0000ms, 0767ms total)
T0440 001:076 JLINK_WriteMem(0x20000468, 0x0200 Bytes, ...) - Data: 9D 05 00 00 9D 05 00 00 9D 05 00 00 9D 05 00 00 ... -- CPU_WriteMem(512 bytes @ 0x20000468)  returns 0x200 (0007ms, 0774ms total)
T0440 001:083 JLINK_WriteReg(R0, 0x00000200)  returns 0x00 (0000ms, 0774ms total)
T0440 001:083 JLINK_WriteReg(R1, 0x00000200)  returns 0x00 (0000ms, 0774ms total)
T0440 001:083 JLINK_WriteReg(R2, 0x20000468)  returns 0x00 (0000ms, 0774ms total)
T0440 001:083 JLINK_WriteReg(R3, 0x00000000)  returns 0x00 (0000ms, 0774ms total)
T0440 001:083 JLINK_WriteReg(R4, 0x00000000)  returns 0x00 (0000ms, 0774ms total)
T0440 001:083 JLINK_WriteReg(R5, 0x00000000)  returns 0x00 (0000ms, 0774ms total)
T0440 001:083 JLINK_WriteReg(R6, 0x00000000)  returns 0x00 (0000ms, 0774ms total)
T0440 001:083 JLINK_WriteReg(R7, 0x00000000)  returns 0x00 (0000ms, 0774ms total)
T0440 001:083 JLINK_WriteReg(R8, 0x00000000)  returns 0x00 (0000ms, 0774ms total)
T0440 001:083 JLINK_WriteReg(R9, 0x20000438)  returns 0x00 (0000ms, 0774ms total)
T0440 001:083 JLINK_WriteReg(R10, 0x00000000)  returns 0x00 (0000ms, 0774ms total)
T0440 001:083 JLINK_WriteReg(R11, 0x00000000)  returns 0x00 (0000ms, 0774ms total)
T0440 001:083 JLINK_WriteReg(R12, 0x00000000)  returns 0x00 (0000ms, 0774ms total)
T0440 001:083 JLINK_WriteReg(R13 (SP), 0x20001000)  returns 0x00 (0000ms, 0774ms total)
T0440 001:083 JLINK_WriteReg(R14, 0x20000001)  returns 0x00 (0000ms, 0774ms total)
T0440 001:083 JLINK_WriteReg(R15 (PC), 0x200000DE)  returns 0x00 (0000ms, 0774ms total)
T0440 001:083 JLINK_WriteReg(XPSR, 0x01000000)  returns 0x00 (0000ms, 0774ms total)
T0440 001:083 JLINK_WriteReg(MSP, 0x20001000)  returns 0x00 (0000ms, 0774ms total)
T0440 001:083 JLINK_WriteReg(PSP, 0x20001000)  returns 0x00 (0000ms, 0774ms total)
T0440 001:083 JLINK_WriteReg(CFBP, 0x00000000)  returns 0x00 (0000ms, 0774ms total)
T0440 001:083 JLINK_SetBPEx(Addr = 0x20000000, Type = 0xFFFFFFF2)  returns 0x0000000D (0000ms, 0774ms total)
T0440 001:083 JLINK_Go() (0003ms, 0777ms total)
T0440 001:086 JLINK_IsHalted()  returns FALSE (0001ms, 0778ms total)
T0440 001:101 JLINK_IsHalted() -- CPU_ReadMem(2 bytes @ 0x20000000)  returns TRUE (0005ms, 0782ms total)
T0440 001:106 JLINK_ReadReg(R15 (PC))  returns 0x20000000 (0000ms, 0777ms total)
T0440 001:106 JLINK_ClrBPEx(BPHandle = 0x0000000D)  returns 0x00 (0000ms, 0777ms total)
T0440 001:106 JLINK_ReadReg(R0)  returns 0x00000000 (0000ms, 0777ms total)
T0440 001:106 JLINK_WriteMem(0x20000468, 0x0200 Bytes, ...) - Data: FF FF FF FF FF FF FF FF FF FF FF FF FE FF FF FF ... -- CPU_WriteMem(512 bytes @ 0x20000468)  returns 0x200 (0007ms, 0784ms total)
T0440 001:113 JLINK_WriteReg(R0, 0x00000400)  returns 0x00 (0000ms, 0784ms total)
T0440 001:113 JLINK_WriteReg(R1, 0x00000200)  returns 0x00 (0000ms, 0784ms total)
T0440 001:113 JLINK_WriteReg(R2, 0x20000468)  returns 0x00 (0000ms, 0784ms total)
T0440 001:113 JLINK_WriteReg(R3, 0x00000000)  returns 0x00 (0000ms, 0784ms total)
T0440 001:113 JLINK_WriteReg(R4, 0x00000000)  returns 0x00 (0000ms, 0784ms total)
T0440 001:113 JLINK_WriteReg(R5, 0x00000000)  returns 0x00 (0000ms, 0784ms total)
T0440 001:113 JLINK_WriteReg(R6, 0x00000000)  returns 0x00 (0000ms, 0784ms total)
T0440 001:113 JLINK_WriteReg(R7, 0x00000000)  returns 0x00 (0000ms, 0784ms total)
T0440 001:113 JLINK_WriteReg(R8, 0x00000000)  returns 0x00 (0000ms, 0784ms total)
T0440 001:113 JLINK_WriteReg(R9, 0x20000438)  returns 0x00 (0000ms, 0784ms total)
T0440 001:113 JLINK_WriteReg(R10, 0x00000000)  returns 0x00 (0000ms, 0784ms total)
T0440 001:113 JLINK_WriteReg(R11, 0x00000000)  returns 0x00 (0000ms, 0784ms total)
T0440 001:113 JLINK_WriteReg(R12, 0x00000000)  returns 0x00 (0000ms, 0784ms total)
T0440 001:113 JLINK_WriteReg(R13 (SP), 0x20001000)  returns 0x00 (0000ms, 0784ms total)
T0440 001:113 JLINK_WriteReg(R14, 0x20000001)  returns 0x00 (0000ms, 0784ms total)
T0440 001:113 JLINK_WriteReg(R15 (PC), 0x200000DE)  returns 0x00 (0000ms, 0784ms total)
T0440 001:113 JLINK_WriteReg(XPSR, 0x01000000)  returns 0x00 (0000ms, 0784ms total)
T0440 001:114 JLINK_WriteReg(MSP, 0x20001000)  returns 0x00 (0000ms, 0785ms total)
T0440 001:114 JLINK_WriteReg(PSP, 0x20001000)  returns 0x00 (0000ms, 0785ms total)
T0440 001:114 JLINK_WriteReg(CFBP, 0x00000000)  returns 0x00 (0000ms, 0785ms total)
T0440 001:114 JLINK_SetBPEx(Addr = 0x20000000, Type = 0xFFFFFFF2)  returns 0x0000000E (0000ms, 0785ms total)
T0440 001:114 JLINK_Go() (0002ms, 0787ms total)
T0440 001:116 JLINK_IsHalted()  returns FALSE (0001ms, 0788ms total)
T0440 001:121 JLINK_IsHalted()  returns FALSE (0000ms, 0787ms total)
T0440 001:122 JLINK_IsHalted()  returns FALSE (0000ms, 0787ms total)
T0440 001:123 JLINK_IsHalted() -- CPU_ReadMem(2 bytes @ 0x20000000)  returns TRUE (0005ms, 0792ms total)
T0440 001:128 JLINK_ReadReg(R15 (PC))  returns 0x20000000 (0000ms, 0787ms total)
T0440 001:128 JLINK_ClrBPEx(BPHandle = 0x0000000E)  returns 0x00 (0000ms, 0787ms total)
T0440 001:128 JLINK_ReadReg(R0)  returns 0x00000000 (0000ms, 0787ms total)
T0440 001:129 JLINK_WriteMem(0x20000468, 0x0200 Bytes, ...) - Data: 02 C8 8C 1A 8C 43 14 EA C2 11 F9 D0 C0 1A 0A 06 ... -- CPU_WriteMem(512 bytes @ 0x20000468)  returns 0x200 (0006ms, 0793ms total)
T0440 001:135 JLINK_WriteReg(R0, 0x00000600)  returns 0x00 (0000ms, 0793ms total)
T0440 001:135 JLINK_WriteReg(R1, 0x00000200)  returns 0x00 (0000ms, 0793ms total)
T0440 001:135 JLINK_WriteReg(R2, 0x20000468)  returns 0x00 (0000ms, 0793ms total)
T0440 001:135 JLINK_WriteReg(R3, 0x00000000)  returns 0x00 (0000ms, 0793ms total)
T0440 001:135 JLINK_WriteReg(R4, 0x00000000)  returns 0x00 (0000ms, 0793ms total)
T0440 001:135 JLINK_WriteReg(R5, 0x00000000)  returns 0x00 (0000ms, 0793ms total)
T0440 001:135 JLINK_WriteReg(R6, 0x00000000)  returns 0x00 (0000ms, 0793ms total)
T0440 001:135 JLINK_WriteReg(R7, 0x00000000)  returns 0x00 (0000ms, 0793ms total)
T0440 001:135 JLINK_WriteReg(R8, 0x00000000)  returns 0x00 (0000ms, 0793ms total)
T0440 001:135 JLINK_WriteReg(R9, 0x20000438)  returns 0x00 (0000ms, 0793ms total)
T0440 001:135 JLINK_WriteReg(R10, 0x00000000)  returns 0x00 (0000ms, 0793ms total)
T0440 001:135 JLINK_WriteReg(R11, 0x00000000)  returns 0x00 (0000ms, 0793ms total)
T0440 001:135 JLINK_WriteReg(R12, 0x00000000)  returns 0x00 (0000ms, 0793ms total)
T0440 001:135 JLINK_WriteReg(R13 (SP), 0x20001000)  returns 0x00 (0000ms, 0793ms total)
T0440 001:135 JLINK_WriteReg(R14, 0x20000001)  returns 0x00 (0000ms, 0793ms total)
T0440 001:135 JLINK_WriteReg(R15 (PC), 0x200000DE)  returns 0x00 (0000ms, 0793ms total)
T0440 001:135 JLINK_WriteReg(XPSR, 0x01000000)  returns 0x00 (0000ms, 0793ms total)
T0440 001:135 JLINK_WriteReg(MSP, 0x20001000)  returns 0x00 (0000ms, 0793ms total)
T0440 001:135 JLINK_WriteReg(PSP, 0x20001000)  returns 0x00 (0000ms, 0793ms total)
T0440 001:135 JLINK_WriteReg(CFBP, 0x00000000)  returns 0x00 (0000ms, 0793ms total)
T0440 001:135 JLINK_SetBPEx(Addr = 0x20000000, Type = 0xFFFFFFF2)  returns 0x0000000F (0000ms, 0793ms total)
T0440 001:135 JLINK_Go() (0003ms, 0796ms total)
T0440 001:138 JLINK_IsHalted()  returns FALSE (0001ms, 0797ms total)
T0440 001:140 JLINK_IsHalted()  returns FALSE (0000ms, 0796ms total)
T0440 001:141 JLINK_IsHalted()  returns FALSE (0000ms, 0796ms total)
T0440 001:142 JLINK_IsHalted()  returns FALSE (0000ms, 0796ms total)
T0440 001:143 JLINK_IsHalted()  returns FALSE (0001ms, 0797ms total)
T0440 001:145 JLINK_IsHalted() -- CPU_ReadMem(2 bytes @ 0x20000000)  returns TRUE (0005ms, 0801ms total)
T0440 001:150 JLINK_ReadReg(R15 (PC))  returns 0x20000000 (0000ms, 0796ms total)
T0440 001:150 JLINK_ClrBPEx(BPHandle = 0x0000000F)  returns 0x00 (0000ms, 0796ms total)
T0440 001:150 JLINK_ReadReg(R0)  returns 0x00000000 (0000ms, 0796ms total)
T0440 001:150 JLINK_WriteMem(0x20000468, 0x0200 Bytes, ...) - Data: 01 3E 12 1F C0 F2 0E 80 51 F8 04 3B A3 EB 0E 0C ... -- CPU_WriteMem(512 bytes @ 0x20000468)  returns 0x200 (0007ms, 0803ms total)
T0440 001:157 JLINK_WriteReg(R0, 0x00000800)  returns 0x00 (0000ms, 0803ms total)
T0440 001:157 JLINK_WriteReg(R1, 0x00000200)  returns 0x00 (0000ms, 0803ms total)
T0440 001:157 JLINK_WriteReg(R2, 0x20000468)  returns 0x00 (0000ms, 0803ms total)
T0440 001:157 JLINK_WriteReg(R3, 0x00000000)  returns 0x00 (0000ms, 0803ms total)
T0440 001:157 JLINK_WriteReg(R4, 0x00000000)  returns 0x00 (0000ms, 0803ms total)
T0440 001:157 JLINK_WriteReg(R5, 0x00000000)  returns 0x00 (0000ms, 0803ms total)
T0440 001:157 JLINK_WriteReg(R6, 0x00000000)  returns 0x00 (0000ms, 0803ms total)
T0440 001:157 JLINK_WriteReg(R7, 0x00000000)  returns 0x00 (0000ms, 0803ms total)
T0440 001:157 JLINK_WriteReg(R8, 0x00000000)  returns 0x00 (0000ms, 0803ms total)
T0440 001:157 JLINK_WriteReg(R9, 0x20000438)  returns 0x00 (0000ms, 0803ms total)
T0440 001:157 JLINK_WriteReg(R10, 0x00000000)  returns 0x00 (0000ms, 0803ms total)
T0440 001:157 JLINK_WriteReg(R11, 0x00000000)  returns 0x00 (0000ms, 0803ms total)
T0440 001:157 JLINK_WriteReg(R12, 0x00000000)  returns 0x00 (0000ms, 0803ms total)
T0440 001:157 JLINK_WriteReg(R13 (SP), 0x20001000)  returns 0x00 (0000ms, 0803ms total)
T0440 001:157 JLINK_WriteReg(R14, 0x20000001)  returns 0x00 (0000ms, 0803ms total)
T0440 001:157 JLINK_WriteReg(R15 (PC), 0x200000DE)  returns 0x00 (0000ms, 0803ms total)
T0440 001:157 JLINK_WriteReg(XPSR, 0x01000000)  returns 0x00 (0000ms, 0803ms total)
T0440 001:157 JLINK_WriteReg(MSP, 0x20001000)  returns 0x00 (0000ms, 0803ms total)
T0440 001:157 JLINK_WriteReg(PSP, 0x20001000)  returns 0x00 (0000ms, 0803ms total)
T0440 001:157 JLINK_WriteReg(CFBP, 0x00000000)  returns 0x00 (0000ms, 0803ms total)
T0440 001:157 JLINK_SetBPEx(Addr = 0x20000000, Type = 0xFFFFFFF2)  returns 0x00000010 (0000ms, 0803ms total)
T0440 001:157 JLINK_Go() (0003ms, 0806ms total)
T0440 001:160 JLINK_IsHalted()  returns FALSE (0001ms, 0807ms total)
T0440 001:162 JLINK_IsHalted()  returns FALSE (0000ms, 0806ms total)
T0440 001:163 JLINK_IsHalted()  returns FALSE (0000ms, 0806ms total)
T0440 001:164 JLINK_IsHalted()  returns FALSE (0000ms, 0806ms total)
T0440 001:165 JLINK_IsHalted()  returns FALSE (0000ms, 0806ms total)
T0440 001:166 JLINK_IsHalted()  returns FALSE (0000ms, 0806ms total)
T0440 001:167 JLINK_IsHalted() -- CPU_ReadMem(2 bytes @ 0x20000000)  returns TRUE (0005ms, 0811ms total)
T0440 001:172 JLINK_ReadReg(R15 (PC))  returns 0x20000000 (0000ms, 0806ms total)
T0440 001:172 JLINK_ClrBPEx(BPHandle = 0x00000010)  returns 0x00 (0000ms, 0806ms total)
T0440 001:172 JLINK_ReadReg(R0)  returns 0x00000000 (0000ms, 0806ms total)
T0440 001:172 JLINK_WriteMem(0x20000468, 0x0200 Bytes, ...) - Data: CB F8 00 40 B9 F1 00 0F 06 D0 FF F7 1D FF 02 21 ... -- CPU_WriteMem(512 bytes @ 0x20000468)  returns 0x200 (0007ms, 0813ms total)
T0440 001:179 JLINK_WriteReg(R0, 0x00000A00)  returns 0x00 (0000ms, 0813ms total)
T0440 001:179 JLINK_WriteReg(R1, 0x00000200)  returns 0x00 (0000ms, 0813ms total)
T0440 001:179 JLINK_WriteReg(R2, 0x20000468)  returns 0x00 (0000ms, 0813ms total)
T0440 001:179 JLINK_WriteReg(R3, 0x00000000)  returns 0x00 (0000ms, 0813ms total)
T0440 001:179 JLINK_WriteReg(R4, 0x00000000)  returns 0x00 (0000ms, 0813ms total)
T0440 001:179 JLINK_WriteReg(R5, 0x00000000)  returns 0x00 (0000ms, 0813ms total)
T0440 001:179 JLINK_WriteReg(R6, 0x00000000)  returns 0x00 (0000ms, 0813ms total)
T0440 001:179 JLINK_WriteReg(R7, 0x00000000)  returns 0x00 (0000ms, 0813ms total)
T0440 001:179 JLINK_WriteReg(R8, 0x00000000)  returns 0x00 (0000ms, 0813ms total)
T0440 001:179 JLINK_WriteReg(R9, 0x20000438)  returns 0x00 (0000ms, 0813ms total)
T0440 001:179 JLINK_WriteReg(R10, 0x00000000)  returns 0x00 (0000ms, 0813ms total)
T0440 001:179 JLINK_WriteReg(R11, 0x00000000)  returns 0x00 (0000ms, 0813ms total)
